
**** 11/03/21 14:42:55 ********* PSpice 9.2 (Mar 2000) ******** ID# 0 ********

 * D:\Semester\FALL2021\CSE250\Lab2\20101065_Tanjim_Lab02\20101065_TanjimReza_Lab2_File1.sch


 ****     CIRCUIT DESCRIPTION


******************************************************************************




* Schematics Version 9.2
* Wed Nov 03 14:42:54 2021



** Analysis setup **
.OP 


* From [PSPICE NETLIST] section of C:\Program Files\Orcad\PSpice\PSpice.ini:
.lib "nom.lib"

.INC "20101065_TanjimReza_Lab2_File1.net"



**** INCLUDING 20101065_TanjimReza_Lab2_File1.net ****
* Schematics Netlist *



R_R3         $N_0002 $N_0001  1k  
R_R4         0 $N_0002  1k  
V_V1         $N_0003 0 12
R_R1         $N_0003 $N_0001  10k  
R_R2         $N_0003 $N_0001  10k  

**** RESUMING 20101065_TanjimReza_Lab2_File1.cir ****
.PROBE V(*) I(*) W(*) D(*) NOISE(*) 


.END

**** 11/03/21 14:42:55 ********* PSpice 9.2 (Mar 2000) ******** ID# 0 ********

 * D:\Semester\FALL2021\CSE250\Lab2\20101065_Tanjim_Lab02\20101065_TanjimReza_Lab2_File1.sch


 ****     SMALL SIGNAL BIAS SOLUTION       TEMPERATURE =   27.000 DEG C


******************************************************************************



 NODE   VOLTAGE     NODE   VOLTAGE     NODE   VOLTAGE     NODE   VOLTAGE


($N_0001)    3.4286                   ($N_0002)    1.7143                       

($N_0003)   12.0000                   




    VOLTAGE SOURCE CURRENTS
    NAME         CURRENT

    V_V1        -1.714E-03

    TOTAL POWER DISSIPATION   2.06E-02  WATTS


**** 11/03/21 14:42:55 ********* PSpice 9.2 (Mar 2000) ******** ID# 0 ********

 * D:\Semester\FALL2021\CSE250\Lab2\20101065_Tanjim_Lab02\20101065_TanjimReza_Lab2_File1.sch


 ****     OPERATING POINT INFORMATION      TEMPERATURE =   27.000 DEG C


******************************************************************************





          JOB CONCLUDED

          TOTAL JOB TIME             .02
