
**** 11/14/21 22:02:10 ********* PSpice 9.2 (Mar 2000) ******** ID# 0 ********

 * C:\Users\Tanjim\Desktop\Lab3\Submission\20101065_TanjimRezaLab03File1.sch


 ****     CIRCUIT DESCRIPTION


******************************************************************************




* Schematics Version 9.2
* Sun Nov 14 22:02:06 2021



** Analysis setup **
.OP 


* From [PSPICE NETLIST] section of C:\Program Files\Orcad\PSpice\PSpice.ini:
.lib "nom.lib"

.INC "20101065_TanjimRezaLab03File1.net"



**** INCLUDING 20101065_TanjimRezaLab03File1.net ****
* Schematics Netlist *



V_V2         $N_0001 0 6.0V
R_R1         $N_0001 $N_0002  5.0k  
R_R2         $N_0002 $N_0003  9.5k  
R_R3         $N_0003 0  2.5k  

**** RESUMING 20101065_TanjimRezaLab03File1.cir ****
.PROBE V(*) I(*) W(*) D(*) NOISE(*) 


.END

**** 11/14/21 22:02:10 ********* PSpice 9.2 (Mar 2000) ******** ID# 0 ********

 * C:\Users\Tanjim\Desktop\Lab3\Submission\20101065_TanjimRezaLab03File1.sch


 ****     SMALL SIGNAL BIAS SOLUTION       TEMPERATURE =   27.000 DEG C


******************************************************************************



 NODE   VOLTAGE     NODE   VOLTAGE     NODE   VOLTAGE     NODE   VOLTAGE


($N_0001)    6.0000                   ($N_0002)    4.2353                       

($N_0003)     .8824                   




    VOLTAGE SOURCE CURRENTS
    NAME         CURRENT

    V_V2        -3.529E-04

    TOTAL POWER DISSIPATION   2.12E-03  WATTS


**** 11/14/21 22:02:10 ********* PSpice 9.2 (Mar 2000) ******** ID# 0 ********

 * C:\Users\Tanjim\Desktop\Lab3\Submission\20101065_TanjimRezaLab03File1.sch


 ****     OPERATING POINT INFORMATION      TEMPERATURE =   27.000 DEG C


******************************************************************************





          JOB CONCLUDED

          TOTAL JOB TIME            0.00
