
**** 11/14/21 21:38:57 ********* PSpice 9.2 (Mar 2000) ******** ID# 0 ********

 * C:\Users\Tanjim\Desktop\Lab3\20101065_Tanjim_Lab3File1.sch


 ****     CIRCUIT DESCRIPTION


******************************************************************************




* Schematics Version 9.2
* Sun Nov 14 16:03:42 2021



** Analysis setup **
.OP 
.STMLIB "20101065_Tanjim_Lab3File1.stl"


* From [PSPICE NETLIST] section of C:\Program Files\Orcad\PSpice\PSpice.ini:
.lib "nom.lib"

.INC "20101065_Tanjim_Lab3File1.net"



**** INCLUDING 20101065_Tanjim_Lab3File1.net ****
* Schematics Netlist *



R_R1         $N_0002 $N_0001  5k  
V_V2         $N_0002 0 6V
R_R2         $N_0001 $N_0003  9.5k  
R_R3         $N_0003 0  2.5k  

**** RESUMING 20101065_Tanjim_Lab3File1.cir ****
.PROBE V(*) I(*) W(*) D(*) NOISE(*) 


.END

**** 11/14/21 21:38:57 ********* PSpice 9.2 (Mar 2000) ******** ID# 0 ********

 * C:\Users\Tanjim\Desktop\Lab3\20101065_Tanjim_Lab3File1.sch


 ****     SMALL SIGNAL BIAS SOLUTION       TEMPERATURE =   27.000 DEG C


******************************************************************************



 NODE   VOLTAGE     NODE   VOLTAGE     NODE   VOLTAGE     NODE   VOLTAGE


($N_0001)    4.2353                   ($N_0002)    6.0000                       

($N_0003)     .8824                   




    VOLTAGE SOURCE CURRENTS
    NAME         CURRENT

    V_V2        -3.529E-04

    TOTAL POWER DISSIPATION   2.12E-03  WATTS


**** 11/14/21 21:38:57 ********* PSpice 9.2 (Mar 2000) ******** ID# 0 ********

 * C:\Users\Tanjim\Desktop\Lab3\20101065_Tanjim_Lab3File1.sch


 ****     OPERATING POINT INFORMATION      TEMPERATURE =   27.000 DEG C


******************************************************************************





          JOB CONCLUDED

          TOTAL JOB TIME            0.00
